T7848 099:103.671   SEGGER J-Link V7.86c Log File
T7848 099:103.711   DLL Compiled: Mar  9 2023 16:16:05
T7848 099:103.716   Logging started @ 2025-11-07 05:57
T7848 099:103.719 - 4299.233ms
T7848 099:103.728 JLINK_SetWarnOutHandler(...)
T7848 099:103.731 - 0.005ms
T7848 099:103.736 JLINK_OpenEx(...)
T7848 099:106.302   Firmware: J-Link V9 compiled May  7 2021 16:26:12
T7848 099:107.205   Firmware: J-Link V9 compiled May  7 2021 16:26:12
T7848 099:107.312   Decompressing FW timestamp took 87 us
T7848 099:116.456   Hardware: V9.70
T7848 099:116.471   S/N: 150712143
T7848 099:116.476   OEM: SEGGER
T7848 099:116.481   Feature(s): GDB, RDI, FlashBP, FlashDL, JFlash
T7848 099:118.957   TELNET listener socket opened on port 19021
T7848 099:122.549   WEBSRV WEBSRV_Init(): Starting webserver thread(s)
T7848 099:122.699   WEBSRV Webserver running on local port 19080
T7848 099:126.718 - 22.990ms returns "O.K."
T7848 099:126.741 JLINK_GetEmuCaps()
T7848 099:126.745 - 0.006ms returns 0xB9FF7BBF
T7848 099:127.466 JLINK_TIF_GetAvailable(...)
T7848 099:127.883 - 0.418ms
T7848 099:127.889 JLINK_SetErrorOutHandler(...)
T7848 099:127.893 - 0.005ms
T7848 099:127.901 JLINK_ExecCommand("ProjectFile = "C:\Project\PUYA\PY32_Docs\PY32F031_Firmware\Projects\PY32F030-STK\Example\GPIO\GPIO_Toggle\MDK-ARM\JLinkSettings.ini"", ...). 
T7848 099:128.889 - 0.994ms returns 0x00
T7848 099:130.785 JLINK_ExecCommand("Device = PY32F030x6", ...). 
T7848 099:130.972   Flash bank @ 0x08000000: SFL: Parsing sectorization info from ELF file
T7848 099:130.979     FlashDevice.SectorInfo[0]: .SectorSize = 0x00001000, .SectorStartAddr = 0x00000000
T7848 099:130.985   OFL: Init() present @ offset 0x0000007D
T7848 099:130.990   OFL: UnInit() present @ offset 0x00000119
T7848 099:130.995   OFL: EraseSector() present @ offset 0x00000181
T7848 099:131.000   OFL: ProgramPage() present @ offset 0x000001C7
T7848 099:131.004   OFL: EraseChip() present @ offset 0x0000012D
T7848 099:131.009   OFL: BlankCheck() present @ offset 0x000001C3
T7848 099:131.014   OFL: Verify() N/A
T7848 099:131.019   OFL: SEGGER_FL_Erase() N/A
T7848 099:131.024   OFL: SEGGER_OPEN_Erase() N/A
T7848 099:131.028   OFL: SEGGER_FL_Program() N/A
T7848 099:131.033   OFL: SEGGER_OPEN_Program() N/A
T7848 099:131.038   OFL: SEGGER_FL_Read() N/A
T7848 099:131.042   OFL: SEGGER_OPEN_Read() N/A
T7848 099:131.047   OFL: SEGGER_FL_CalcCRC() N/A
T7848 099:131.052   OFL: SEGGER_OPEN_CalcCRC() N/A
T7848 099:131.057   OFL: SEGGER_FL_Start() N/A
T7848 099:131.063   OFL: SEGGER_OPEN_Start() N/A
T7848 099:131.067   OFL: SEGGER_FL_GetFlashInfo() N/A
T7848 099:131.072   OFL: SEGGER_OPEN_GetFlashInfo() N/A
T7848 099:131.077   OFL: SEGGER_FL_Verify() N/A
T7848 099:131.082   OFL: SEGGER_FL_CheckBlank() N/A
T7848 099:131.087   OFL: SEGGER_FL_Prepare() N/A
T7848 099:131.092   OFL: SEGGER_FL_Restore() N/A
T7848 099:131.097   OFL: SEGGER_FL_EraseChip() N/A
T7848 099:131.184   Flash bank @ 0x1FFF0E80: SFL: Parsing sectorization info from ELF file
T7848 099:131.190     FlashDevice.SectorInfo[0]: .SectorSize = 0x00000010, .SectorStartAddr = 0x00000000
T7848 099:131.195   OFL: Init() present @ offset 0x0000007D
T7848 099:131.200   OFL: UnInit() present @ offset 0x00000121
T7848 099:131.206   OFL: EraseSector() present @ offset 0x00000141
T7848 099:131.211   OFL: ProgramPage() present @ offset 0x00000149
T7848 099:131.216   OFL: EraseChip() present @ offset 0x0000013D
T7848 099:131.221   OFL: BlankCheck() present @ offset 0x00000145
T7848 099:131.226   OFL: Verify() present @ offset 0x00000199
T7848 099:131.231   OFL: SEGGER_FL_Erase() N/A
T7848 099:131.236   OFL: SEGGER_OPEN_Erase() N/A
T7848 099:131.241   OFL: SEGGER_FL_Program() N/A
T7848 099:131.246   OFL: SEGGER_OPEN_Program() N/A
T7848 099:131.251   OFL: SEGGER_FL_Read() N/A
T7848 099:131.256   OFL: SEGGER_OPEN_Read() N/A
T7848 099:131.261   OFL: SEGGER_FL_CalcCRC() N/A
T7848 099:131.265   OFL: SEGGER_OPEN_CalcCRC() N/A
T7848 099:131.270   OFL: SEGGER_FL_Start() N/A
T7848 099:131.275   OFL: SEGGER_OPEN_Start() N/A
T7848 099:131.323   OFL: SEGGER_FL_GetFlashInfo() N/A
T7848 099:131.328   OFL: SEGGER_OPEN_GetFlashInfo() N/A
T7848 099:131.333   OFL: SEGGER_FL_Verify() N/A
T7848 099:131.337   OFL: SEGGER_FL_CheckBlank() N/A
T7848 099:131.342   OFL: SEGGER_FL_Prepare() N/A
T7848 099:131.347   OFL: SEGGER_FL_Restore() N/A
T7848 099:131.352   OFL: SEGGER_FL_EraseChip() N/A
T7848 099:132.942   Device "PY32F030X6" selected.
T7848 099:136.678 - 5.886ms returns 0x00
T7848 099:136.693 JLINK_ExecCommand("DisableConnectionTimeout", ...). 
T7848 099:136.699 - 0.002ms returns 0x01
T7848 099:136.709 JLINK_GetHardwareVersion()
T7848 099:136.713 - 0.005ms returns 97000
T7848 099:136.718 JLINK_GetDLLVersion()
T7848 099:136.722 - 0.005ms returns 78603
T7848 099:136.726 JLINK_GetOEMString(...)
T7848 099:136.731 JLINK_GetFirmwareString(...)
T7848 099:136.735 - 0.005ms
T7848 099:142.070 JLINK_GetDLLVersion()
T7848 099:142.086 - 0.017ms returns 78603
T7848 099:142.095 JLINK_GetCompileDateTime()
T7848 099:142.098 - 0.005ms
T7848 099:143.470 JLINK_GetFirmwareString(...)
T7848 099:143.482 - 0.014ms
T7848 099:144.841 JLINK_GetHardwareVersion()
T7848 099:144.852 - 0.012ms returns 97000
T7848 099:146.311 JLINK_GetSN()
T7848 099:146.323 - 0.014ms returns 150712143
T7848 099:148.100 JLINK_GetOEMString(...)
T7848 099:150.698 JLINK_TIF_Select(JLINKARM_TIF_SWD)
T7848 099:152.408 - 1.720ms returns 0x00
T7848 099:152.425 JLINK_HasError()
T7848 099:152.436 JLINK_SetSpeed(5000)
T7848 099:152.882 - 0.454ms
T7848 099:152.937 JLINK_GetId()
T7848 099:156.372   Found SW-DP with ID 0x0BC11477
T7848 099:162.022   DPIDR: 0x0BC11477
T7848 099:163.301   CoreSight SoC-400 or earlier
T7848 099:164.751   Scanning AP map to find all available APs
T7848 099:167.037   AP[1]: Stopped AP scan as end of AP map has been reached
T7848 099:168.322   AP[0]: AHB-AP (IDR: 0x04770031)
T7848 099:173.671   Iterating through AP map to find AHB-AP to use
T7848 099:176.134   AP[0]: Core found
T7848 099:177.374   AP[0]: AHB-AP ROM base: 0xE00FF000
T7848 099:179.364   CPUID register: 0x410CC601. Implementer code: 0x41 (ARM)
T7848 099:180.622   Found Cortex-M0 r0p1, Little endian.
T7848 099:181.467   -- Max. mem block: 0x00010C40
T7848 099:182.200   CPU_ReadMem(4 bytes @ 0xE000EDF0)
T7848 099:182.714   CPU_WriteMem(4 bytes @ 0xE000EDF0)
T7848 099:183.227   CPU_ReadMem(4 bytes @ 0xE0002000)
T7848 099:185.055   FPUnit: 4 code (BP) slots and 0 literal slots
T7848 099:185.069   CPU_ReadMem(4 bytes @ 0xE000EDFC)
T7848 099:185.800   CPU_WriteMem(4 bytes @ 0xE000EDFC)
T7848 099:186.467   CPU_ReadMem(4 bytes @ 0xE0001000)
T7848 099:186.994   CPU_WriteMem(4 bytes @ 0xE0001000)
T7848 099:189.926   CoreSight components:
T7848 099:191.242   ROMTbl[0] @ E00FF000
T7848 099:191.256   CPU_ReadMem(64 bytes @ 0xE00FF000)
T7848 099:192.301   CPU_ReadMem(32 bytes @ 0xE000EFE0)
T7848 099:194.240   [0][0]: E000E000 CID B105E00D PID 000BB008 SCS
T7848 099:194.254   CPU_ReadMem(32 bytes @ 0xE0001FE0)
T7848 099:196.299   [0][1]: E0001000 CID B105E00D PID 000BB00A DWT
T7848 099:196.313   CPU_ReadMem(32 bytes @ 0xE0002FE0)
T7848 099:198.238   [0][2]: E0002000 CID B105E00D PID 000BB00B FPB
T7848 099:198.844 - 45.914ms returns 0x0BC11477
T7848 099:198.869 JLINK_GetDLLVersion()
T7848 099:198.873 - 0.005ms returns 78603
T7848 099:198.896 JLINK_CORE_GetFound()
T7848 099:198.900 - 0.005ms returns 0x60000FF
T7848 099:198.906 JLINK_GetDebugInfo(0x100 = JLINKARM_ROM_TABLE_ADDR_INDEX)
T7848 099:198.911   Value=0xE00FF000
T7848 099:198.916 - 0.012ms returns 0
T7848 099:200.354 JLINK_GetDebugInfo(0x100 = JLINKARM_ROM_TABLE_ADDR_INDEX)
T7848 099:200.366   Value=0xE00FF000
T7848 099:200.371 - 0.018ms returns 0
T7848 099:200.376 JLINK_GetDebugInfo(0x101 = JLINKARM_DEBUG_INFO_ETM_ADDR_INDEX)
T7848 099:200.380   Value=0x00000000
T7848 099:200.384 - 0.010ms returns 0
T7848 099:200.391 JLINK_ReadMemEx(0xE0041FF0, 0x10 Bytes, Flags = 0x02000004)
T7848 099:200.403   CPU_ReadMem(16 bytes @ 0xE0041FF0)
T7848 099:201.073   Data:  00 00 00 00 00 00 00 00 00 00 00 00 00 00 00 00
T7848 099:201.086 - 0.696ms returns 16 (0x10)
T7848 099:201.091 JLINK_GetDebugInfo(0x102 = JLINKARM_DEBUG_INFO_MTB_ADDR_INDEX)
T7848 099:201.095   Value=0x00000000
T7848 099:201.099 - 0.010ms returns 0
T7848 099:201.104 JLINK_GetDebugInfo(0x103 = JLINKARM_DEBUG_INFO_TPIU_ADDR_INDEX)
T7848 099:201.107   Value=0x00000000
T7848 099:201.112 - 0.010ms returns 0
T7848 099:201.116 JLINK_ReadMemEx(0xE0040FF0, 0x10 Bytes, Flags = 0x02000004)
T7848 099:201.123   CPU_ReadMem(16 bytes @ 0xE0040FF0)
T7848 099:201.719   Data:  00 00 00 00 00 00 00 00 00 00 00 00 00 00 00 00
T7848 099:201.725 - 0.610ms returns 16 (0x10)
T7848 099:201.730 JLINK_GetDebugInfo(0x104 = JLINKARM_DEBUG_INFO_ITM_ADDR_INDEX)
T7848 099:201.734   Value=0xE0000000
T7848 099:201.738 - 0.010ms returns 0
T7848 099:201.742 JLINK_GetDebugInfo(0x105 = JLINKARM_DEBUG_INFO_DWT_ADDR_INDEX)
T7848 099:201.746   Value=0xE0001000
T7848 099:201.751 - 0.009ms returns 0
T7848 099:201.755 JLINK_GetDebugInfo(0x106 = JLINKARM_DEBUG_INFO_FPB_ADDR_INDEX)
T7848 099:201.758   Value=0xE0002000
T7848 099:201.763 - 0.010ms returns 0
T7848 099:201.767 JLINK_GetDebugInfo(0x107 = JLINKARM_DEBUG_INFO_NVIC_ADDR_INDEX)
T7848 099:201.772   Value=0xE000E000
T7848 099:201.778 - 0.012ms returns 0
T7848 099:201.782 JLINK_GetDebugInfo(0x10C = JLINKARM_DEBUG_INFO_DBG_ADDR_INDEX)
T7848 099:201.785   Value=0xE000EDF0
T7848 099:201.790 - 0.009ms returns 0
T7848 099:201.794 JLINK_GetDebugInfo(0x01 = Unknown)
T7848 099:201.797   Value=0x00000000
T7848 099:201.802 - 0.009ms returns 0
T7848 099:201.807 JLINK_ReadMemU32(0xE000ED00, 0x1 Items)
T7848 099:201.812   CPU_ReadMem(4 bytes @ 0xE000ED00)
T7848 099:202.471   Data:  01 C6 0C 41
T7848 099:202.484   Debug reg: CPUID
T7848 099:202.489 - 0.683ms returns 1 (0x1)
T7848 099:202.495 JLINK_GetDebugInfo(0x10F = JLINKARM_DEBUG_INFO_HAS_CORTEX_M_SECURITY_EXT_INDEX)
T7848 099:202.499   Value=0x00000000
T7848 099:202.504 - 0.010ms returns 0
T7848 099:202.509 JLINK_HasError()
T7848 099:202.516 JLINK_SetResetType(JLINKARM_CM3_RESET_TYPE_NORMAL)
T7848 099:202.520 - 0.005ms returns JLINKARM_CM3_RESET_TYPE_NORMAL
T7848 099:202.524 JLINK_Reset()
T7848 099:202.532   CPU is running
T7848 099:202.543   CPU_WriteMem(4 bytes @ 0xE000EDF0)
T7848 099:203.114   CPU is running
T7848 099:203.126   CPU_WriteMem(4 bytes @ 0xE000EDFC)
T7848 099:206.664   Reset: Halt core after reset via DEMCR.VC_CORERESET.
T7848 099:209.002   Reset: Reset device via AIRCR.SYSRESETREQ.
T7848 099:209.016   CPU is running
T7848 099:209.022   CPU_WriteMem(4 bytes @ 0xE000ED0C)
T7848 099:263.583   CPU_ReadMem(4 bytes @ 0xE000EDF0)
T7848 099:264.174   CPU_ReadMem(4 bytes @ 0xE000EDF0)
T7848 099:267.022   CPU_WriteMem(4 bytes @ 0xE000EDFC)
T7848 099:273.516   CPU_ReadMem(4 bytes @ 0xE000EDF0)
T7848 099:276.625   CPU_WriteMem(4 bytes @ 0xE0002000)
T7848 099:277.323   CPU_ReadMem(4 bytes @ 0xE000EDFC)
T7848 099:277.938   CPU_ReadMem(4 bytes @ 0xE0001000)
T7848 099:278.460   CPU_WriteMem(4 bytes @ 0xE0001000)
T7848 099:279.044 - 76.528ms
T7848 099:279.161 JLINK_Halt()
T7848 099:279.176 - 0.021ms returns 0x00
T7848 099:279.194 JLINK_ReadMemU32(0xE000EDF0, 0x1 Items)
T7848 099:279.221   CPU_ReadMem(4 bytes @ 0xE000EDF0)
T7848 099:279.837   Data:  03 00 03 00
T7848 099:279.858   Debug reg: DHCSR
T7848 099:279.876 - 0.690ms returns 1 (0x1)
T7848 099:279.900 JLINK_WriteU32_64(0xE000EDF0, 0xA05F0003)
T7848 099:279.914   Debug reg: DHCSR
T7848 099:280.509   CPU_WriteMem(4 bytes @ 0xE000EDF0)
T7848 099:281.137 - 1.246ms returns 0 (0x00000000)
T7848 099:281.159 JLINK_WriteU32_64(0xE000EDFC, 0x01000000)
T7848 099:281.173   Debug reg: DEMCR
T7848 099:281.200   CPU_WriteMem(4 bytes @ 0xE000EDFC)
T7848 099:281.918 - 0.766ms returns 0 (0x00000000)
T7848 099:290.702 JLINK_GetHWStatus(...)
T7848 099:291.147 - 0.447ms returns 0
T7848 099:295.045 JLINK_GetNumBPUnits(Type = 0xFFFFFF00)
T7848 099:295.059 - 0.015ms returns 0x04
T7848 099:295.064 JLINK_GetNumBPUnits(Type = 0xF0)
T7848 099:295.067 - 0.005ms returns 0x2000
T7848 099:295.072 JLINK_GetNumWPUnits()
T7848 099:295.079 - 0.011ms returns 2
T7848 099:298.762 JLINK_GetSpeed()
T7848 099:298.780 - 0.020ms returns 4000
T7848 099:301.342 JLINK_ReadMemU32(0xE000E004, 0x1 Items)
T7848 099:301.364   CPU_ReadMem(4 bytes @ 0xE000E004)
T7848 099:301.945   Data:  00 00 00 00
T7848 099:301.952 - 0.611ms returns 1 (0x1)
T7848 099:301.960 JLINK_Halt()
T7848 099:302.370 - 0.418ms returns 0x00
T7848 099:302.513 JLINK_IsHalted()
T7848 099:302.518 - 0.007ms returns TRUE
T7848 099:304.339 JLINK_WriteMem(0x20000000, 0x3A8 Bytes, ...)
T7848 099:304.347   Data:  00 BE 0A E0 0D 78 2D 06 68 40 08 24 40 00 00 D3 ...
T7848 099:304.531   CPU_WriteMem(936 bytes @ 0x20000000)
T7848 099:308.259 - 3.997ms returns 0x3A8
T7848 099:308.361 JLINK_HasError()
T7848 099:308.369 JLINK_WriteReg(R0, 0x08000000)
T7848 099:308.376 - 0.008ms returns 0
T7848 099:308.380 JLINK_WriteReg(R1, 0x00B71B00)
T7848 099:308.384 - 0.005ms returns 0
T7848 099:308.388 JLINK_WriteReg(R2, 0x00000001)
T7848 099:308.392 - 0.005ms returns 0
T7848 099:308.396 JLINK_WriteReg(R3, 0x00000000)
T7848 099:308.400 - 0.005ms returns 0
T7848 099:308.404 JLINK_WriteReg(R4, 0x00000000)
T7848 099:308.407 - 0.005ms returns 0
T7848 099:308.411 JLINK_WriteReg(R5, 0x00000000)
T7848 099:308.415 - 0.005ms returns 0
T7848 099:308.419 JLINK_WriteReg(R6, 0x00000000)
T7848 099:308.423 - 0.005ms returns 0
T7848 099:308.427 JLINK_WriteReg(R7, 0x00000000)
T7848 099:308.430 - 0.005ms returns 0
T7848 099:308.434 JLINK_WriteReg(R8, 0x00000000)
T7848 099:308.438 - 0.005ms returns 0
T7848 099:308.442 JLINK_WriteReg(R9, 0x200003A0)
T7848 099:308.446 - 0.005ms returns 0
T7848 099:308.450 JLINK_WriteReg(R10, 0x00000000)
T7848 099:308.454 - 0.005ms returns 0
T7848 099:308.458 JLINK_WriteReg(R11, 0x00000000)
T7848 099:308.462 - 0.005ms returns 0
T7848 099:308.466 JLINK_WriteReg(R12, 0x00000000)
T7848 099:308.469 - 0.005ms returns 0
T7848 099:308.473 JLINK_WriteReg(R13 (SP), 0x20001000)
T7848 099:308.478 - 0.006ms returns 0
T7848 099:308.482 JLINK_WriteReg(R14, 0x20000001)
T7848 099:308.485 - 0.005ms returns 0
T7848 099:308.490 JLINK_WriteReg(R15 (PC), 0x200000D2)
T7848 099:308.493 - 0.005ms returns 0
T7848 099:308.497 JLINK_WriteReg(XPSR, 0x01000000)
T7848 099:308.501 - 0.005ms returns 0
T7848 099:308.505 JLINK_WriteReg(MSP, 0x20001000)
T7848 099:308.509 - 0.005ms returns 0
T7848 099:308.513 JLINK_WriteReg(PSP, 0x20001000)
T7848 099:308.516 - 0.005ms returns 0
T7848 099:308.520 JLINK_WriteReg(CFBP, 0x00000000)
T7848 099:308.524 - 0.005ms returns 0
T7848 099:308.529 JLINK_SetBPEx(Addr = 0x20000000, Type = 0xFFFFFFF2)
T7848 099:308.536   CPU_ReadMem(2 bytes @ 0x20000000)
T7848 099:309.039 - 0.515ms returns 0x00000001
T7848 099:309.050 JLINK_Go()
T7848 099:309.061   CPU_WriteMem(2 bytes @ 0x20000000)
T7848 099:309.619   CPU_ReadMem(4 bytes @ 0xE0001000)
T7848 099:310.157   CPU_WriteMem(4 bytes @ 0xE0001000)
T7848 099:310.680   CPU_WriteMem(4 bytes @ 0xE0002008)
T7848 099:310.686   CPU_WriteMem(4 bytes @ 0xE000200C)
T7848 099:310.691   CPU_WriteMem(4 bytes @ 0xE0002010)
T7848 099:310.696   CPU_WriteMem(4 bytes @ 0xE0002014)
T7848 099:311.780   CPU_WriteMem(4 bytes @ 0xE0001004)
T7848 099:314.761 - 5.713ms
T7848 099:314.767 JLINK_IsHalted()
T7848 099:317.012   CPU_ReadMem(2 bytes @ 0x20000000)
T7848 099:317.720 - 2.955ms returns TRUE
T7848 099:317.727 JLINK_ReadReg(R15 (PC))
T7848 099:317.733 - 0.007ms returns 0x20000000
T7848 099:317.738 JLINK_ClrBPEx(BPHandle = 0x00000001)
T7848 099:317.742 - 0.005ms returns 0x00
T7848 099:317.746 JLINK_ReadReg(R0)
T7848 099:317.750 - 0.005ms returns 0x00000000
T7848 099:317.924 JLINK_HasError()
T7848 099:317.932 JLINK_WriteReg(R0, 0x08000000)
T7848 099:317.938 - 0.007ms returns 0
T7848 099:317.942 JLINK_WriteReg(R1, 0x00001000)
T7848 099:317.945 - 0.005ms returns 0
T7848 099:317.949 JLINK_WriteReg(R2, 0x000000FF)
T7848 099:317.953 - 0.005ms returns 0
T7848 099:317.957 JLINK_WriteReg(R3, 0x00000000)
T7848 099:317.960 - 0.005ms returns 0
T7848 099:317.964 JLINK_WriteReg(R4, 0x00000000)
T7848 099:317.968 - 0.052ms returns 0
T7848 099:318.021 JLINK_WriteReg(R5, 0x00000000)
T7848 099:318.025 - 0.005ms returns 0
T7848 099:318.029 JLINK_WriteReg(R6, 0x00000000)
T7848 099:318.032 - 0.005ms returns 0
T7848 099:318.036 JLINK_WriteReg(R7, 0x00000000)
T7848 099:318.039 - 0.005ms returns 0
T7848 099:318.043 JLINK_WriteReg(R8, 0x00000000)
T7848 099:318.047 - 0.005ms returns 0
T7848 099:318.051 JLINK_WriteReg(R9, 0x200003A0)
T7848 099:318.054 - 0.005ms returns 0
T7848 099:318.058 JLINK_WriteReg(R10, 0x00000000)
T7848 099:318.062 - 0.005ms returns 0
T7848 099:318.066 JLINK_WriteReg(R11, 0x00000000)
T7848 099:318.069 - 0.005ms returns 0
T7848 099:318.073 JLINK_WriteReg(R12, 0x00000000)
T7848 099:318.077 - 0.005ms returns 0
T7848 099:318.081 JLINK_WriteReg(R13 (SP), 0x20001000)
T7848 099:318.085 - 0.005ms returns 0
T7848 099:318.088 JLINK_WriteReg(R14, 0x20000001)
T7848 099:318.092 - 0.005ms returns 0
T7848 099:318.096 JLINK_WriteReg(R15 (PC), 0x200002D2)
T7848 099:318.100 - 0.005ms returns 0
T7848 099:318.103 JLINK_WriteReg(XPSR, 0x01000000)
T7848 099:318.107 - 0.005ms returns 0
T7848 099:318.111 JLINK_WriteReg(MSP, 0x20001000)
T7848 099:318.114 - 0.005ms returns 0
T7848 099:318.118 JLINK_WriteReg(PSP, 0x20001000)
T7848 099:318.122 - 0.005ms returns 0
T7848 099:318.126 JLINK_WriteReg(CFBP, 0x00000000)
T7848 099:318.129 - 0.005ms returns 0
T7848 099:318.133 JLINK_SetBPEx(Addr = 0x20000000, Type = 0xFFFFFFF2)
T7848 099:318.138 - 0.005ms returns 0x00000002
T7848 099:318.142 JLINK_Go()
T7848 099:318.149   CPU_ReadMem(4 bytes @ 0xE0001000)
T7848 099:321.322 - 3.191ms
T7848 099:321.337 JLINK_IsHalted()
T7848 099:323.714   CPU_ReadMem(2 bytes @ 0x20000000)
T7848 099:324.218 - 2.882ms returns TRUE
T7848 099:324.223 JLINK_ReadReg(R15 (PC))
T7848 099:324.228 - 0.006ms returns 0x20000000
T7848 099:324.233 JLINK_ClrBPEx(BPHandle = 0x00000002)
T7848 099:324.237 - 0.005ms returns 0x00
T7848 099:324.241 JLINK_ReadReg(R0)
T7848 099:324.245 - 0.005ms returns 0x00000001
T7848 099:324.249 JLINK_HasError()
T7848 099:324.253 JLINK_WriteReg(R0, 0x08000000)
T7848 099:324.257 - 0.005ms returns 0
T7848 099:324.262 JLINK_WriteReg(R1, 0x00001000)
T7848 099:324.265 - 0.005ms returns 0
T7848 099:324.270 JLINK_WriteReg(R2, 0x000000FF)
T7848 099:324.278 - 0.009ms returns 0
T7848 099:324.282 JLINK_WriteReg(R3, 0x00000000)
T7848 099:324.285 - 0.005ms returns 0
T7848 099:324.289 JLINK_WriteReg(R4, 0x00000000)
T7848 099:324.293 - 0.005ms returns 0
T7848 099:324.297 JLINK_WriteReg(R5, 0x00000000)
T7848 099:324.300 - 0.005ms returns 0
T7848 099:324.305 JLINK_WriteReg(R6, 0x00000000)
T7848 099:324.308 - 0.005ms returns 0
T7848 099:324.312 JLINK_WriteReg(R7, 0x00000000)
T7848 099:324.316 - 0.005ms returns 0
T7848 099:324.320 JLINK_WriteReg(R8, 0x00000000)
T7848 099:324.324 - 0.005ms returns 0
T7848 099:324.328 JLINK_WriteReg(R9, 0x200003A0)
T7848 099:324.331 - 0.005ms returns 0
T7848 099:324.335 JLINK_WriteReg(R10, 0x00000000)
T7848 099:324.339 - 0.005ms returns 0
T7848 099:324.343 JLINK_WriteReg(R11, 0x00000000)
T7848 099:324.347 - 0.005ms returns 0
T7848 099:324.351 JLINK_WriteReg(R12, 0x00000000)
T7848 099:324.354 - 0.005ms returns 0
T7848 099:324.358 JLINK_WriteReg(R13 (SP), 0x20001000)
T7848 099:324.362 - 0.005ms returns 0
T7848 099:324.366 JLINK_WriteReg(R14, 0x20000001)
T7848 099:324.370 - 0.005ms returns 0
T7848 099:324.374 JLINK_WriteReg(R15 (PC), 0x2000026E)
T7848 099:324.378 - 0.005ms returns 0
T7848 099:324.382 JLINK_WriteReg(XPSR, 0x01000000)
T7848 099:324.386 - 0.005ms returns 0
T7848 099:324.390 JLINK_WriteReg(MSP, 0x20001000)
T7848 099:324.393 - 0.005ms returns 0
T7848 099:324.397 JLINK_WriteReg(PSP, 0x20001000)
T7848 099:324.401 - 0.005ms returns 0
T7848 099:324.405 JLINK_WriteReg(CFBP, 0x00000000)
T7848 099:324.409 - 0.005ms returns 0
T7848 099:324.413 JLINK_SetBPEx(Addr = 0x20000000, Type = 0xFFFFFFF2)
T7848 099:324.417 - 0.005ms returns 0x00000003
T7848 099:324.421 JLINK_Go()
T7848 099:324.427   CPU_ReadMem(4 bytes @ 0xE0001000)
T7848 099:327.179 - 2.764ms
T7848 099:327.192 JLINK_IsHalted()
T7848 099:331.128 - 3.938ms returns FALSE
T7848 099:331.139 JLINK_HasError()
T7848 099:338.786 JLINK_IsHalted()
T7848 099:341.072   CPU_ReadMem(2 bytes @ 0x20000000)
T7848 099:341.555 - 2.772ms returns TRUE
T7848 099:341.562 JLINK_ReadReg(R15 (PC))
T7848 099:341.567 - 0.007ms returns 0x20000000
T7848 099:341.572 JLINK_ClrBPEx(BPHandle = 0x00000003)
T7848 099:341.576 - 0.006ms returns 0x00
T7848 099:341.580 JLINK_ReadReg(R0)
T7848 099:341.584 - 0.005ms returns 0x00000000
T7848 099:341.774 JLINK_HasError()
T7848 099:341.788 JLINK_WriteReg(R0, 0x00000001)
T7848 099:341.793 - 0.007ms returns 0
T7848 099:341.798 JLINK_WriteReg(R1, 0x00001000)
T7848 099:341.801 - 0.005ms returns 0
T7848 099:341.805 JLINK_WriteReg(R2, 0x000000FF)
T7848 099:341.809 - 0.005ms returns 0
T7848 099:341.813 JLINK_WriteReg(R3, 0x00000000)
T7848 099:341.817 - 0.005ms returns 0
T7848 099:341.821 JLINK_WriteReg(R4, 0x00000000)
T7848 099:341.825 - 0.005ms returns 0
T7848 099:341.829 JLINK_WriteReg(R5, 0x00000000)
T7848 099:341.833 - 0.005ms returns 0
T7848 099:341.869 JLINK_WriteReg(R6, 0x00000000)
T7848 099:341.873 - 0.006ms returns 0
T7848 099:341.879 JLINK_WriteReg(R7, 0x00000000)
T7848 099:341.883 - 0.005ms returns 0
T7848 099:341.886 JLINK_WriteReg(R8, 0x00000000)
T7848 099:341.890 - 0.005ms returns 0
T7848 099:341.894 JLINK_WriteReg(R9, 0x200003A0)
T7848 099:341.897 - 0.005ms returns 0
T7848 099:341.901 JLINK_WriteReg(R10, 0x00000000)
T7848 099:341.905 - 0.005ms returns 0
T7848 099:341.909 JLINK_WriteReg(R11, 0x00000000)
T7848 099:341.912 - 0.005ms returns 0
T7848 099:341.916 JLINK_WriteReg(R12, 0x00000000)
T7848 099:341.920 - 0.009ms returns 0
T7848 099:341.928 JLINK_WriteReg(R13 (SP), 0x20001000)
T7848 099:341.932 - 0.005ms returns 0
T7848 099:341.936 JLINK_WriteReg(R14, 0x20000001)
T7848 099:341.939 - 0.005ms returns 0
T7848 099:341.943 JLINK_WriteReg(R15 (PC), 0x200001D2)
T7848 099:341.947 - 0.005ms returns 0
T7848 099:341.951 JLINK_WriteReg(XPSR, 0x01000000)
T7848 099:341.954 - 0.005ms returns 0
T7848 099:341.958 JLINK_WriteReg(MSP, 0x20001000)
T7848 099:341.962 - 0.005ms returns 0
T7848 099:341.966 JLINK_WriteReg(PSP, 0x20001000)
T7848 099:341.969 - 0.005ms returns 0
T7848 099:341.973 JLINK_WriteReg(CFBP, 0x00000000)
T7848 099:341.977 - 0.005ms returns 0
T7848 099:341.981 JLINK_SetBPEx(Addr = 0x20000000, Type = 0xFFFFFFF2)
T7848 099:341.985 - 0.006ms returns 0x00000004
T7848 099:341.990 JLINK_Go()
T7848 099:341.998   CPU_ReadMem(4 bytes @ 0xE0001000)
T7848 099:344.949 - 2.962ms
T7848 099:344.955 JLINK_IsHalted()
T7848 099:347.369   CPU_ReadMem(2 bytes @ 0x20000000)
T7848 099:348.041 - 3.087ms returns TRUE
T7848 099:348.047 JLINK_ReadReg(R15 (PC))
T7848 099:348.051 - 0.006ms returns 0x20000000
T7848 099:348.056 JLINK_ClrBPEx(BPHandle = 0x00000004)
T7848 099:348.060 - 0.005ms returns 0x00
T7848 099:348.064 JLINK_ReadReg(R0)
T7848 099:348.068 - 0.005ms returns 0x00000000
T7848 099:403.575 JLINK_WriteMem(0x20000000, 0x3A8 Bytes, ...)
T7848 099:403.589   Data:  00 BE 0A E0 0D 78 2D 06 68 40 08 24 40 00 00 D3 ...
T7848 099:403.606   CPU_WriteMem(936 bytes @ 0x20000000)
T7848 099:407.278 - 3.760ms returns 0x3A8
T7848 099:407.359 JLINK_HasError()
T7848 099:407.366 JLINK_WriteReg(R0, 0x08000000)
T7848 099:407.373 - 0.008ms returns 0
T7848 099:407.377 JLINK_WriteReg(R1, 0x00B71B00)
T7848 099:407.381 - 0.005ms returns 0
T7848 099:407.385 JLINK_WriteReg(R2, 0x00000002)
T7848 099:407.389 - 0.005ms returns 0
T7848 099:407.393 JLINK_WriteReg(R3, 0x00000000)
T7848 099:407.396 - 0.005ms returns 0
T7848 099:407.401 JLINK_WriteReg(R4, 0x00000000)
T7848 099:407.404 - 0.005ms returns 0
T7848 099:407.408 JLINK_WriteReg(R5, 0x00000000)
T7848 099:407.412 - 0.005ms returns 0
T7848 099:407.416 JLINK_WriteReg(R6, 0x00000000)
T7848 099:407.420 - 0.005ms returns 0
T7848 099:407.424 JLINK_WriteReg(R7, 0x00000000)
T7848 099:407.428 - 0.005ms returns 0
T7848 099:407.432 JLINK_WriteReg(R8, 0x00000000)
T7848 099:407.435 - 0.005ms returns 0
T7848 099:407.458 JLINK_WriteReg(R9, 0x200003A0)
T7848 099:407.467 - 0.010ms returns 0
T7848 099:407.471 JLINK_WriteReg(R10, 0x00000000)
T7848 099:407.475 - 0.005ms returns 0
T7848 099:407.479 JLINK_WriteReg(R11, 0x00000000)
T7848 099:407.482 - 0.005ms returns 0
T7848 099:407.487 JLINK_WriteReg(R12, 0x00000000)
T7848 099:407.491 - 0.005ms returns 0
T7848 099:407.495 JLINK_WriteReg(R13 (SP), 0x20001000)
T7848 099:407.499 - 0.006ms returns 0
T7848 099:407.503 JLINK_WriteReg(R14, 0x20000001)
T7848 099:407.507 - 0.005ms returns 0
T7848 099:407.511 JLINK_WriteReg(R15 (PC), 0x200000D2)
T7848 099:407.515 - 0.005ms returns 0
T7848 099:407.519 JLINK_WriteReg(XPSR, 0x01000000)
T7848 099:407.523 - 0.005ms returns 0
T7848 099:407.527 JLINK_WriteReg(MSP, 0x20001000)
T7848 099:407.530 - 0.005ms returns 0
T7848 099:407.534 JLINK_WriteReg(PSP, 0x20001000)
T7848 099:407.538 - 0.005ms returns 0
T7848 099:407.542 JLINK_WriteReg(CFBP, 0x00000000)
T7848 099:407.546 - 0.005ms returns 0
T7848 099:407.550 JLINK_SetBPEx(Addr = 0x20000000, Type = 0xFFFFFFF2)
T7848 099:407.557   CPU_ReadMem(2 bytes @ 0x20000000)
T7848 099:408.106 - 0.558ms returns 0x00000005
T7848 099:408.112 JLINK_Go()
T7848 099:408.117   CPU_WriteMem(2 bytes @ 0x20000000)
T7848 099:408.824   CPU_ReadMem(4 bytes @ 0xE0001000)
T7848 099:411.712 - 3.605ms
T7848 099:411.722 JLINK_IsHalted()
T7848 099:414.358   CPU_ReadMem(2 bytes @ 0x20000000)
T7848 099:414.924 - 3.208ms returns TRUE
T7848 099:414.934 JLINK_ReadReg(R15 (PC))
T7848 099:414.940 - 0.007ms returns 0x20000000
T7848 099:414.945 JLINK_ClrBPEx(BPHandle = 0x00000005)
T7848 099:414.949 - 0.005ms returns 0x00
T7848 099:414.953 JLINK_ReadReg(R0)
T7848 099:414.957 - 0.005ms returns 0x00000000
T7848 099:415.229 JLINK_WriteMem(0x200003A8, 0x58 Bytes, ...)
T7848 099:415.238   Data:  10 04 00 20 D5 00 00 08 D5 04 00 08 D1 04 00 08 ...
T7848 099:415.250   CPU_WriteMem(88 bytes @ 0x200003A8)
T7848 099:416.330 - 1.141ms returns 0x58
T7848 099:416.415 JLINK_WriteMem(0x20000400, 0x28 Bytes, ...)
T7848 099:416.466   Data:  E7 00 00 08 E7 00 00 08 E7 00 00 08 E7 00 00 08 ...
T7848 099:416.478   CPU_WriteMem(40 bytes @ 0x20000400)
T7848 099:417.314 - 0.901ms returns 0x28
T7848 099:417.320 JLINK_HasError()
T7848 099:417.352 JLINK_WriteReg(R0, 0x08000000)
T7848 099:417.410 - 0.078ms returns 0
T7848 099:417.461 JLINK_WriteReg(R1, 0x00000080)
T7848 099:417.507 - 0.066ms returns 0
T7848 099:417.557 JLINK_WriteReg(R2, 0x200003A8)
T7848 099:417.601 - 0.047ms returns 0
T7848 099:417.607 JLINK_WriteReg(R3, 0x00000000)
T7848 099:417.610 - 0.005ms returns 0
T7848 099:417.614 JLINK_WriteReg(R4, 0x00000000)
T7848 099:417.618 - 0.005ms returns 0
T7848 099:417.622 JLINK_WriteReg(R5, 0x00000000)
T7848 099:417.626 - 0.005ms returns 0
T7848 099:417.630 JLINK_WriteReg(R6, 0x00000000)
T7848 099:417.633 - 0.005ms returns 0
T7848 099:417.637 JLINK_WriteReg(R7, 0x00000000)
T7848 099:417.641 - 0.005ms returns 0
T7848 099:417.645 JLINK_WriteReg(R8, 0x00000000)
T7848 099:417.649 - 0.005ms returns 0
T7848 099:417.653 JLINK_WriteReg(R9, 0x200003A0)
T7848 099:417.656 - 0.005ms returns 0
T7848 099:417.660 JLINK_WriteReg(R10, 0x00000000)
T7848 099:417.664 - 0.005ms returns 0
T7848 099:417.668 JLINK_WriteReg(R11, 0x00000000)
T7848 099:417.672 - 0.005ms returns 0
T7848 099:417.676 JLINK_WriteReg(R12, 0x00000000)
T7848 099:417.680 - 0.005ms returns 0
T7848 099:417.684 JLINK_WriteReg(R13 (SP), 0x20001000)
T7848 099:417.688 - 0.005ms returns 0
T7848 099:417.692 JLINK_WriteReg(R14, 0x20000001)
T7848 099:417.696 - 0.005ms returns 0
T7848 099:417.700 JLINK_WriteReg(R15 (PC), 0x200002D8)
T7848 099:417.704 - 0.005ms returns 0
T7848 099:417.708 JLINK_WriteReg(XPSR, 0x01000000)
T7848 099:417.711 - 0.005ms returns 0
T7848 099:417.715 JLINK_WriteReg(MSP, 0x20001000)
T7848 099:417.719 - 0.005ms returns 0
T7848 099:417.723 JLINK_WriteReg(PSP, 0x20001000)
T7848 099:417.727 - 0.005ms returns 0
T7848 099:417.731 JLINK_WriteReg(CFBP, 0x00000000)
T7848 099:417.734 - 0.005ms returns 0
T7848 099:417.738 JLINK_SetBPEx(Addr = 0x20000000, Type = 0xFFFFFFF2)
T7848 099:417.745 - 0.009ms returns 0x00000006
T7848 099:417.751 JLINK_Go()
T7848 099:417.757   CPU_ReadMem(4 bytes @ 0xE0001000)
T7848 099:420.710 - 2.972ms
T7848 099:420.728 JLINK_IsHalted()
T7848 099:421.922 - 1.229ms returns FALSE
T7848 099:422.001 JLINK_HasError()
T7848 099:425.242 JLINK_IsHalted()
T7848 099:427.681   CPU_ReadMem(2 bytes @ 0x20000000)
T7848 099:428.304 - 3.064ms returns TRUE
T7848 099:428.310 JLINK_ReadReg(R15 (PC))
T7848 099:428.316 - 0.007ms returns 0x20000000
T7848 099:428.320 JLINK_ClrBPEx(BPHandle = 0x00000006)
T7848 099:428.324 - 0.005ms returns 0x00
T7848 099:428.328 JLINK_ReadReg(R0)
T7848 099:428.332 - 0.005ms returns 0x00000000
T7848 099:428.655 JLINK_WriteMem(0x200003A8, 0x58 Bytes, ...)
T7848 099:428.664   Data:  00 00 00 00 E7 00 00 08 00 00 00 00 E7 00 00 08 ...
T7848 099:428.674   CPU_WriteMem(88 bytes @ 0x200003A8)
T7848 099:429.773 - 1.147ms returns 0x58
T7848 099:429.833 JLINK_WriteMem(0x20000400, 0x28 Bytes, ...)
T7848 099:429.837   Data:  04 48 00 47 FE E7 FE E7 FE E7 FE E7 FE E7 FE E7 ...
T7848 099:429.845   CPU_WriteMem(40 bytes @ 0x20000400)
T7848 099:430.545 - 0.714ms returns 0x28
T7848 099:430.551 JLINK_HasError()
T7848 099:430.555 JLINK_WriteReg(R0, 0x08000080)
T7848 099:430.560 - 0.006ms returns 0
T7848 099:430.564 JLINK_WriteReg(R1, 0x00000080)
T7848 099:430.568 - 0.005ms returns 0
T7848 099:430.572 JLINK_WriteReg(R2, 0x200003A8)
T7848 099:430.576 - 0.005ms returns 0
T7848 099:430.580 JLINK_WriteReg(R3, 0x00000000)
T7848 099:430.584 - 0.005ms returns 0
T7848 099:430.588 JLINK_WriteReg(R4, 0x00000000)
T7848 099:430.592 - 0.005ms returns 0
T7848 099:430.596 JLINK_WriteReg(R5, 0x00000000)
T7848 099:430.599 - 0.005ms returns 0
T7848 099:430.603 JLINK_WriteReg(R6, 0x00000000)
T7848 099:430.607 - 0.005ms returns 0
T7848 099:430.611 JLINK_WriteReg(R7, 0x00000000)
T7848 099:430.615 - 0.005ms returns 0
T7848 099:430.619 JLINK_WriteReg(R8, 0x00000000)
T7848 099:430.622 - 0.009ms returns 0
T7848 099:430.631 JLINK_WriteReg(R9, 0x200003A0)
T7848 099:430.634 - 0.005ms returns 0
T7848 099:430.638 JLINK_WriteReg(R10, 0x00000000)
T7848 099:430.642 - 0.005ms returns 0
T7848 099:430.646 JLINK_WriteReg(R11, 0x00000000)
T7848 099:430.650 - 0.005ms returns 0
T7848 099:430.654 JLINK_WriteReg(R12, 0x00000000)
T7848 099:430.658 - 0.005ms returns 0
T7848 099:430.662 JLINK_WriteReg(R13 (SP), 0x20001000)
T7848 099:430.666 - 0.005ms returns 0
T7848 099:430.670 JLINK_WriteReg(R14, 0x20000001)
T7848 099:430.673 - 0.005ms returns 0
T7848 099:430.678 JLINK_WriteReg(R15 (PC), 0x200002D8)
T7848 099:430.681 - 0.005ms returns 0
T7848 099:430.685 JLINK_WriteReg(XPSR, 0x01000000)
T7848 099:430.689 - 0.005ms returns 0
T7848 099:430.693 JLINK_WriteReg(MSP, 0x20001000)
T7848 099:430.697 - 0.005ms returns 0
T7848 099:430.701 JLINK_WriteReg(PSP, 0x20001000)
T7848 099:430.705 - 0.005ms returns 0
T7848 099:430.709 JLINK_WriteReg(CFBP, 0x00000000)
T7848 099:430.712 - 0.005ms returns 0
T7848 099:430.716 JLINK_SetBPEx(Addr = 0x20000000, Type = 0xFFFFFFF2)
T7848 099:430.721 - 0.006ms returns 0x00000007
T7848 099:430.725 JLINK_Go()
T7848 099:430.732   CPU_ReadMem(4 bytes @ 0xE0001000)
T7848 099:433.839 - 3.118ms
T7848 099:433.852 JLINK_IsHalted()
T7848 099:435.080 - 1.241ms returns FALSE
T7848 099:435.107 JLINK_HasError()
T7848 099:437.142 JLINK_IsHalted()
T7848 099:439.490   CPU_ReadMem(2 bytes @ 0x20000000)
T7848 099:440.012 - 2.871ms returns TRUE
T7848 099:440.018 JLINK_ReadReg(R15 (PC))
T7848 099:440.023 - 0.007ms returns 0x20000000
T7848 099:440.027 JLINK_ClrBPEx(BPHandle = 0x00000007)
T7848 099:440.031 - 0.005ms returns 0x00
T7848 099:440.036 JLINK_ReadReg(R0)
T7848 099:440.040 - 0.005ms returns 0x00000000
T7848 099:440.380 JLINK_WriteMem(0x200003A8, 0x58 Bytes, ...)
T7848 099:440.389   Data:  D5 40 9D 42 05 D3 1D 46 95 40 49 1B 25 46 95 40 ...
T7848 099:440.402   CPU_WriteMem(88 bytes @ 0x200003A8)
T7848 099:441.306 - 0.928ms returns 0x58
T7848 099:441.312 JLINK_WriteMem(0x20000400, 0x28 Bytes, ...)
T7848 099:441.346   Data:  FF F7 B6 FF CC 05 00 08 EC 05 00 08 00 B5 87 B0 ...
T7848 099:441.356   CPU_WriteMem(40 bytes @ 0x20000400)
T7848 099:442.088 - 0.778ms returns 0x28
T7848 099:442.094 JLINK_HasError()
T7848 099:442.099 JLINK_WriteReg(R0, 0x08000100)
T7848 099:442.104 - 0.006ms returns 0
T7848 099:442.110 JLINK_WriteReg(R1, 0x00000080)
T7848 099:442.140 - 0.031ms returns 0
T7848 099:442.144 JLINK_WriteReg(R2, 0x200003A8)
T7848 099:442.147 - 0.005ms returns 0
T7848 099:442.151 JLINK_WriteReg(R3, 0x00000000)
T7848 099:442.155 - 0.005ms returns 0
T7848 099:442.159 JLINK_WriteReg(R4, 0x00000000)
T7848 099:442.162 - 0.005ms returns 0
T7848 099:442.167 JLINK_WriteReg(R5, 0x00000000)
T7848 099:442.171 - 0.005ms returns 0
T7848 099:442.175 JLINK_WriteReg(R6, 0x00000000)
T7848 099:442.179 - 0.005ms returns 0
T7848 099:442.183 JLINK_WriteReg(R7, 0x00000000)
T7848 099:442.186 - 0.005ms returns 0
T7848 099:442.190 JLINK_WriteReg(R8, 0x00000000)
T7848 099:442.194 - 0.005ms returns 0
T7848 099:442.198 JLINK_WriteReg(R9, 0x200003A0)
T7848 099:442.202 - 0.005ms returns 0
T7848 099:442.206 JLINK_WriteReg(R10, 0x00000000)
T7848 099:442.209 - 0.005ms returns 0
T7848 099:442.213 JLINK_WriteReg(R11, 0x00000000)
T7848 099:442.217 - 0.005ms returns 0
T7848 099:442.221 JLINK_WriteReg(R12, 0x00000000)
T7848 099:442.225 - 0.005ms returns 0
T7848 099:442.229 JLINK_WriteReg(R13 (SP), 0x20001000)
T7848 099:442.233 - 0.006ms returns 0
T7848 099:442.237 JLINK_WriteReg(R14, 0x20000001)
T7848 099:442.241 - 0.005ms returns 0
T7848 099:442.245 JLINK_WriteReg(R15 (PC), 0x200002D8)
T7848 099:442.249 - 0.005ms returns 0
T7848 099:442.257 JLINK_WriteReg(XPSR, 0x01000000)
T7848 099:442.261 - 0.005ms returns 0
T7848 099:442.265 JLINK_WriteReg(MSP, 0x20001000)
T7848 099:442.268 - 0.005ms returns 0
T7848 099:442.272 JLINK_WriteReg(PSP, 0x20001000)
T7848 099:442.276 - 0.005ms returns 0
T7848 099:442.280 JLINK_WriteReg(CFBP, 0x00000000)
T7848 099:442.284 - 0.005ms returns 0
T7848 099:442.288 JLINK_SetBPEx(Addr = 0x20000000, Type = 0xFFFFFFF2)
T7848 099:442.292 - 0.005ms returns 0x00000008
T7848 099:442.296 JLINK_Go()
T7848 099:442.303   CPU_ReadMem(4 bytes @ 0xE0001000)
T7848 099:444.877 - 2.587ms
T7848 099:444.888 JLINK_IsHalted()
T7848 099:446.074 - 1.195ms returns FALSE
T7848 099:446.088 JLINK_HasError()
T7848 099:447.253 JLINK_IsHalted()
T7848 099:449.464   CPU_ReadMem(2 bytes @ 0x20000000)
T7848 099:449.904 - 2.653ms returns TRUE
T7848 099:449.910 JLINK_ReadReg(R15 (PC))
T7848 099:449.916 - 0.007ms returns 0x20000000
T7848 099:449.920 JLINK_ClrBPEx(BPHandle = 0x00000008)
T7848 099:449.925 - 0.006ms returns 0x00
T7848 099:449.929 JLINK_ReadReg(R0)
T7848 099:449.933 - 0.005ms returns 0x00000000
T7848 099:450.370 JLINK_WriteMem(0x200003A8, 0x58 Bytes, ...)
T7848 099:450.381   Data:  40 6B 02 21 08 40 01 90 00 BF 00 BF 04 20 02 90 ...
T7848 099:450.393   CPU_WriteMem(88 bytes @ 0x200003A8)
T7848 099:451.478 - 1.115ms returns 0x58
T7848 099:451.490 JLINK_WriteMem(0x20000400, 0x28 Bytes, ...)
T7848 099:451.494   Data:  0C 00 00 20 70 B5 03 46 00 22 CB E0 01 26 96 40 ...
T7848 099:451.504   CPU_WriteMem(40 bytes @ 0x20000400)
T7848 099:452.067 - 0.581ms returns 0x28
T7848 099:452.075 JLINK_HasError()
T7848 099:452.080 JLINK_WriteReg(R0, 0x08000180)
T7848 099:452.086 - 0.007ms returns 0
T7848 099:452.090 JLINK_WriteReg(R1, 0x00000080)
T7848 099:452.096 - 0.008ms returns 0
T7848 099:452.100 JLINK_WriteReg(R2, 0x200003A8)
T7848 099:452.104 - 0.005ms returns 0
T7848 099:452.108 JLINK_WriteReg(R3, 0x00000000)
T7848 099:452.112 - 0.005ms returns 0
T7848 099:452.116 JLINK_WriteReg(R4, 0x00000000)
T7848 099:452.120 - 0.005ms returns 0
T7848 099:452.124 JLINK_WriteReg(R5, 0x00000000)
T7848 099:452.127 - 0.005ms returns 0
T7848 099:452.131 JLINK_WriteReg(R6, 0x00000000)
T7848 099:452.135 - 0.005ms returns 0
T7848 099:452.140 JLINK_WriteReg(R7, 0x00000000)
T7848 099:452.144 - 0.005ms returns 0
T7848 099:452.148 JLINK_WriteReg(R8, 0x00000000)
T7848 099:452.151 - 0.005ms returns 0
T7848 099:452.190 JLINK_WriteReg(R9, 0x200003A0)
T7848 099:452.195 - 0.007ms returns 0
T7848 099:452.199 JLINK_WriteReg(R10, 0x00000000)
T7848 099:452.203 - 0.005ms returns 0
T7848 099:452.207 JLINK_WriteReg(R11, 0x00000000)
T7848 099:452.210 - 0.005ms returns 0
T7848 099:452.214 JLINK_WriteReg(R12, 0x00000000)
T7848 099:452.218 - 0.005ms returns 0
T7848 099:452.222 JLINK_WriteReg(R13 (SP), 0x20001000)
T7848 099:452.226 - 0.005ms returns 0
T7848 099:452.230 JLINK_WriteReg(R14, 0x20000001)
T7848 099:452.234 - 0.005ms returns 0
T7848 099:452.238 JLINK_WriteReg(R15 (PC), 0x200002D8)
T7848 099:452.242 - 0.005ms returns 0
T7848 099:452.246 JLINK_WriteReg(XPSR, 0x01000000)
T7848 099:452.249 - 0.005ms returns 0
T7848 099:452.253 JLINK_WriteReg(MSP, 0x20001000)
T7848 099:452.257 - 0.005ms returns 0
T7848 099:452.261 JLINK_WriteReg(PSP, 0x20001000)
T7848 099:452.265 - 0.005ms returns 0
T7848 099:452.269 JLINK_WriteReg(CFBP, 0x00000000)
T7848 099:452.273 - 0.005ms returns 0
T7848 099:452.277 JLINK_SetBPEx(Addr = 0x20000000, Type = 0xFFFFFFF2)
T7848 099:452.281 - 0.006ms returns 0x00000009
T7848 099:452.285 JLINK_Go()
T7848 099:452.292   CPU_ReadMem(4 bytes @ 0xE0001000)
T7848 099:455.018 - 2.740ms
T7848 099:455.053 JLINK_IsHalted()
T7848 099:456.210 - 1.160ms returns FALSE
T7848 099:456.217 JLINK_HasError()
T7848 099:457.449 JLINK_IsHalted()
T7848 099:459.906   CPU_ReadMem(2 bytes @ 0x20000000)
T7848 099:460.669 - 3.223ms returns TRUE
T7848 099:460.679 JLINK_ReadReg(R15 (PC))
T7848 099:460.684 - 0.006ms returns 0x20000000
T7848 099:460.715 JLINK_ClrBPEx(BPHandle = 0x00000009)
T7848 099:460.720 - 0.006ms returns 0x00
T7848 099:460.725 JLINK_ReadReg(R0)
T7848 099:460.728 - 0.005ms returns 0x00000000
T7848 099:461.007 JLINK_WriteMem(0x200003A8, 0x58 Bytes, ...)
T7848 099:461.015   Data:  1D 46 20 35 A8 59 55 07 EE 0E 0F 25 B5 40 06 46 ...
T7848 099:461.025   CPU_WriteMem(88 bytes @ 0x200003A8)
T7848 099:462.028 - 1.049ms returns 0x58
T7848 099:462.098 JLINK_WriteMem(0x20000400, 0x28 Bytes, ...)
T7848 099:462.144   Data:  12 2D 18 D1 98 68 56 00 03 25 B5 40 06 46 AE 43 ...
T7848 099:462.181   CPU_WriteMem(40 bytes @ 0x20000400)
T7848 099:462.873 - 0.777ms returns 0x28
T7848 099:462.878 JLINK_HasError()
T7848 099:462.883 JLINK_WriteReg(R0, 0x08000200)
T7848 099:462.887 - 0.006ms returns 0
T7848 099:462.892 JLINK_WriteReg(R1, 0x00000080)
T7848 099:462.895 - 0.005ms returns 0
T7848 099:462.899 JLINK_WriteReg(R2, 0x200003A8)
T7848 099:462.905 - 0.007ms returns 0
T7848 099:462.909 JLINK_WriteReg(R3, 0x00000000)
T7848 099:462.913 - 0.005ms returns 0
T7848 099:462.917 JLINK_WriteReg(R4, 0x00000000)
T7848 099:462.920 - 0.005ms returns 0
T7848 099:462.924 JLINK_WriteReg(R5, 0x00000000)
T7848 099:462.927 - 0.005ms returns 0
T7848 099:462.931 JLINK_WriteReg(R6, 0x00000000)
T7848 099:462.935 - 0.005ms returns 0
T7848 099:462.938 JLINK_WriteReg(R7, 0x00000000)
T7848 099:462.942 - 0.005ms returns 0
T7848 099:462.946 JLINK_WriteReg(R8, 0x00000000)
T7848 099:462.949 - 0.005ms returns 0
T7848 099:462.953 JLINK_WriteReg(R9, 0x200003A0)
T7848 099:462.957 - 0.005ms returns 0
T7848 099:462.961 JLINK_WriteReg(R10, 0x00000000)
T7848 099:462.964 - 0.005ms returns 0
T7848 099:462.968 JLINK_WriteReg(R11, 0x00000000)
T7848 099:462.971 - 0.005ms returns 0
T7848 099:462.975 JLINK_WriteReg(R12, 0x00000000)
T7848 099:462.979 - 0.005ms returns 0
T7848 099:462.982 JLINK_WriteReg(R13 (SP), 0x20001000)
T7848 099:462.986 - 0.005ms returns 0
T7848 099:462.990 JLINK_WriteReg(R14, 0x20000001)
T7848 099:462.994 - 0.005ms returns 0
T7848 099:463.002 JLINK_WriteReg(R15 (PC), 0x200002D8)
T7848 099:463.006 - 0.005ms returns 0
T7848 099:463.009 JLINK_WriteReg(XPSR, 0x01000000)
T7848 099:463.013 - 0.005ms returns 0
T7848 099:463.017 JLINK_WriteReg(MSP, 0x20001000)
T7848 099:463.020 - 0.005ms returns 0
T7848 099:463.024 JLINK_WriteReg(PSP, 0x20001000)
T7848 099:463.028 - 0.005ms returns 0
T7848 099:463.031 JLINK_WriteReg(CFBP, 0x00000000)
T7848 099:463.035 - 0.005ms returns 0
T7848 099:463.039 JLINK_SetBPEx(Addr = 0x20000000, Type = 0xFFFFFFF2)
T7848 099:463.046 - 0.009ms returns 0x0000000A
T7848 099:463.050 JLINK_Go()
T7848 099:463.057   CPU_ReadMem(4 bytes @ 0xE0001000)
T7848 099:466.115 - 3.071ms
T7848 099:466.126 JLINK_IsHalted()
T7848 099:466.857 - 0.736ms returns FALSE
T7848 099:466.866 JLINK_HasError()
T7848 099:467.988 JLINK_IsHalted()
T7848 099:470.650   CPU_ReadMem(2 bytes @ 0x20000000)
T7848 099:471.132 - 3.147ms returns TRUE
T7848 099:471.138 JLINK_ReadReg(R15 (PC))
T7848 099:471.144 - 0.007ms returns 0x20000000
T7848 099:471.148 JLINK_ClrBPEx(BPHandle = 0x0000000A)
T7848 099:471.153 - 0.006ms returns 0x00
T7848 099:471.157 JLINK_ReadReg(R0)
T7848 099:471.161 - 0.005ms returns 0x00000000
T7848 099:471.449 JLINK_WriteMem(0x200003A8, 0x58 Bytes, ...)
T7848 099:471.458   Data:  10 26 4D 68 35 40 2D 09 95 40 28 43 58 60 D8 68 ...
T7848 099:471.468   CPU_WriteMem(88 bytes @ 0x200003A8)
T7848 099:472.387 - 0.941ms returns 0x58
T7848 099:472.394 JLINK_WriteMem(0x20000400, 0x28 Bytes, ...)
T7848 099:472.398   Data:  AB 42 01 D1 01 25 00 E0 02 25 96 07 F6 0E B5 40 ...
T7848 099:472.406   CPU_WriteMem(40 bytes @ 0x20000400)
T7848 099:473.106 - 0.715ms returns 0x28
T7848 099:473.113 JLINK_HasError()
T7848 099:473.119 JLINK_WriteReg(R0, 0x08000280)
T7848 099:473.124 - 0.007ms returns 0
T7848 099:473.129 JLINK_WriteReg(R1, 0x00000080)
T7848 099:473.134 - 0.006ms returns 0
T7848 099:473.138 JLINK_WriteReg(R2, 0x200003A8)
T7848 099:473.143 - 0.006ms returns 0
T7848 099:473.148 JLINK_WriteReg(R3, 0x00000000)
T7848 099:473.152 - 0.006ms returns 0
T7848 099:473.157 JLINK_WriteReg(R4, 0x00000000)
T7848 099:473.161 - 0.006ms returns 0
T7848 099:473.166 JLINK_WriteReg(R5, 0x00000000)
T7848 099:473.171 - 0.006ms returns 0
T7848 099:473.176 JLINK_WriteReg(R6, 0x00000000)
T7848 099:473.180 - 0.006ms returns 0
T7848 099:473.185 JLINK_WriteReg(R7, 0x00000000)
T7848 099:473.189 - 0.006ms returns 0
T7848 099:473.194 JLINK_WriteReg(R8, 0x00000000)
T7848 099:473.198 - 0.006ms returns 0
T7848 099:473.203 JLINK_WriteReg(R9, 0x200003A0)
T7848 099:473.207 - 0.006ms returns 0
T7848 099:473.212 JLINK_WriteReg(R10, 0x00000000)
T7848 099:473.216 - 0.006ms returns 0
T7848 099:473.221 JLINK_WriteReg(R11, 0x00000000)
T7848 099:473.226 - 0.006ms returns 0
T7848 099:473.231 JLINK_WriteReg(R12, 0x00000000)
T7848 099:473.235 - 0.006ms returns 0
T7848 099:473.240 JLINK_WriteReg(R13 (SP), 0x20001000)
T7848 099:473.245 - 0.006ms returns 0
T7848 099:473.250 JLINK_WriteReg(R14, 0x20000001)
T7848 099:473.254 - 0.006ms returns 0
T7848 099:473.259 JLINK_WriteReg(R15 (PC), 0x200002D8)
T7848 099:473.263 - 0.006ms returns 0
T7848 099:473.268 JLINK_WriteReg(XPSR, 0x01000000)
T7848 099:473.273 - 0.006ms returns 0
T7848 099:473.277 JLINK_WriteReg(MSP, 0x20001000)
T7848 099:473.282 - 0.006ms returns 0
T7848 099:473.287 JLINK_WriteReg(PSP, 0x20001000)
T7848 099:473.291 - 0.006ms returns 0
T7848 099:473.296 JLINK_WriteReg(CFBP, 0x00000000)
T7848 099:473.300 - 0.006ms returns 0
T7848 099:473.305 JLINK_SetBPEx(Addr = 0x20000000, Type = 0xFFFFFFF2)
T7848 099:473.310 - 0.007ms returns 0x0000000B
T7848 099:473.315 JLINK_Go()
T7848 099:473.323   CPU_ReadMem(4 bytes @ 0xE0001000)
T7848 099:476.330 - 3.021ms
T7848 099:476.342 JLINK_IsHalted()
T7848 099:477.480 - 1.141ms returns FALSE
T7848 099:477.488 JLINK_HasError()
T7848 099:479.370 JLINK_IsHalted()
T7848 099:481.734   CPU_ReadMem(2 bytes @ 0x20000000)
T7848 099:482.357 - 2.992ms returns TRUE
T7848 099:482.368 JLINK_ReadReg(R15 (PC))
T7848 099:482.377 - 0.013ms returns 0x20000000
T7848 099:482.386 JLINK_ClrBPEx(BPHandle = 0x0000000B)
T7848 099:482.394 - 0.011ms returns 0x00
T7848 099:482.403 JLINK_ReadReg(R0)
T7848 099:482.411 - 0.011ms returns 0x00000000
T7848 099:482.954 JLINK_WriteMem(0x200003A8, 0x58 Bytes, ...)
T7848 099:482.975   Data:  36 04 4D 68 35 40 B5 42 02 D1 05 46 25 43 28 46 ...
T7848 099:482.995   CPU_WriteMem(88 bytes @ 0x200003A8)
T7848 099:484.108 - 1.159ms returns 0x58
T7848 099:484.120 JLINK_WriteMem(0x20000400, 0x28 Bytes, ...)
T7848 099:484.132   Data:  28 60 68 68 05 46 A5 43 28 46 01 26 76 05 4D 68 ...
T7848 099:484.150   CPU_WriteMem(40 bytes @ 0x20000400)
T7848 099:484.949 - 0.833ms returns 0x28
T7848 099:484.960 JLINK_HasError()
T7848 099:484.968 JLINK_WriteReg(R0, 0x08000300)
T7848 099:484.977 - 0.012ms returns 0
T7848 099:484.985 JLINK_WriteReg(R1, 0x00000080)
T7848 099:484.992 - 0.010ms returns 0
T7848 099:485.000 JLINK_WriteReg(R2, 0x200003A8)
T7848 099:485.008 - 0.010ms returns 0
T7848 099:485.015 JLINK_WriteReg(R3, 0x00000000)
T7848 099:485.022 - 0.010ms returns 0
T7848 099:485.030 JLINK_WriteReg(R4, 0x00000000)
T7848 099:485.037 - 0.010ms returns 0
T7848 099:485.045 JLINK_WriteReg(R5, 0x00000000)
T7848 099:485.052 - 0.010ms returns 0
T7848 099:485.060 JLINK_WriteReg(R6, 0x00000000)
T7848 099:485.066 - 0.010ms returns 0
T7848 099:485.074 JLINK_WriteReg(R7, 0x00000000)
T7848 099:485.081 - 0.010ms returns 0
T7848 099:485.089 JLINK_WriteReg(R8, 0x00000000)
T7848 099:485.096 - 0.010ms returns 0
T7848 099:485.104 JLINK_WriteReg(R9, 0x200003A0)
T7848 099:485.111 - 0.010ms returns 0
T7848 099:485.118 JLINK_WriteReg(R10, 0x00000000)
T7848 099:485.125 - 0.010ms returns 0
T7848 099:485.133 JLINK_WriteReg(R11, 0x00000000)
T7848 099:485.140 - 0.010ms returns 0
T7848 099:485.148 JLINK_WriteReg(R12, 0x00000000)
T7848 099:485.155 - 0.010ms returns 0
T7848 099:485.163 JLINK_WriteReg(R13 (SP), 0x20001000)
T7848 099:485.170 - 0.010ms returns 0
T7848 099:485.178 JLINK_WriteReg(R14, 0x20000001)
T7848 099:485.185 - 0.010ms returns 0
T7848 099:485.193 JLINK_WriteReg(R15 (PC), 0x200002D8)
T7848 099:485.200 - 0.010ms returns 0
T7848 099:485.208 JLINK_WriteReg(XPSR, 0x01000000)
T7848 099:485.215 - 0.010ms returns 0
T7848 099:485.222 JLINK_WriteReg(MSP, 0x20001000)
T7848 099:485.230 - 0.010ms returns 0
T7848 099:485.237 JLINK_WriteReg(PSP, 0x20001000)
T7848 099:485.244 - 0.010ms returns 0
T7848 099:485.252 JLINK_WriteReg(CFBP, 0x00000000)
T7848 099:485.259 - 0.010ms returns 0
T7848 099:485.267 JLINK_SetBPEx(Addr = 0x20000000, Type = 0xFFFFFFF2)
T7848 099:485.275 - 0.011ms returns 0x0000000C
T7848 099:485.283 JLINK_Go()
T7848 099:485.295   CPU_ReadMem(4 bytes @ 0xE0001000)
T7848 099:488.605 - 3.333ms
T7848 099:488.629 JLINK_IsHalted()
T7848 099:489.829 - 1.207ms returns FALSE
T7848 099:489.847 JLINK_HasError()
T7848 099:491.842 JLINK_IsHalted()
T7848 099:494.210   CPU_ReadMem(2 bytes @ 0x20000000)
T7848 099:494.833 - 2.996ms returns TRUE
T7848 099:494.845 JLINK_ReadReg(R15 (PC))
T7848 099:494.856 - 0.014ms returns 0x20000000
T7848 099:494.865 JLINK_ClrBPEx(BPHandle = 0x0000000C)
T7848 099:494.874 - 0.013ms returns 0x00
T7848 099:494.884 JLINK_ReadReg(R0)
T7848 099:494.892 - 0.012ms returns 0x00000000
T7848 099:495.544 JLINK_WriteMem(0x200003A8, 0x58 Bytes, ...)
T7848 099:495.564   Data:  00 2D 00 D0 2E E7 70 BD 60 18 02 40 00 04 00 50 ...
T7848 099:495.587   CPU_WriteMem(88 bytes @ 0x200003A8)
T7848 099:496.613 - 1.084ms returns 0x58
T7848 099:496.637 JLINK_WriteMem(0x20000400, 0x28 Bytes, ...)
T7848 099:496.645   Data:  33 F8 20 46 10 BD 00 00 F8 B5 04 46 00 25 13 48 ...
T7848 099:496.663   CPU_WriteMem(40 bytes @ 0x20000400)
T7848 099:497.528 - 0.902ms returns 0x28
T7848 099:497.547 JLINK_HasError()
T7848 099:497.556 JLINK_WriteReg(R0, 0x08000380)
T7848 099:497.567 - 0.013ms returns 0
T7848 099:497.574 JLINK_WriteReg(R1, 0x00000080)
T7848 099:497.581 - 0.009ms returns 0
T7848 099:497.588 JLINK_WriteReg(R2, 0x200003A8)
T7848 099:497.594 - 0.009ms returns 0
T7848 099:497.601 JLINK_WriteReg(R3, 0x00000000)
T7848 099:497.608 - 0.009ms returns 0
T7848 099:497.615 JLINK_WriteReg(R4, 0x00000000)
T7848 099:497.622 - 0.009ms returns 0
T7848 099:497.629 JLINK_WriteReg(R5, 0x00000000)
T7848 099:497.635 - 0.009ms returns 0
T7848 099:497.642 JLINK_WriteReg(R6, 0x00000000)
T7848 099:497.649 - 0.009ms returns 0
T7848 099:497.656 JLINK_WriteReg(R7, 0x00000000)
T7848 099:497.662 - 0.009ms returns 0
T7848 099:497.669 JLINK_WriteReg(R8, 0x00000000)
T7848 099:497.676 - 0.013ms returns 0
T7848 099:497.689 JLINK_WriteReg(R9, 0x200003A0)
T7848 099:497.696 - 0.009ms returns 0
T7848 099:497.703 JLINK_WriteReg(R10, 0x00000000)
T7848 099:497.709 - 0.009ms returns 0
T7848 099:497.717 JLINK_WriteReg(R11, 0x00000000)
T7848 099:497.723 - 0.009ms returns 0
T7848 099:497.734 JLINK_WriteReg(R12, 0x00000000)
T7848 099:497.740 - 0.009ms returns 0
T7848 099:497.747 JLINK_WriteReg(R13 (SP), 0x20001000)
T7848 099:497.754 - 0.009ms returns 0
T7848 099:497.761 JLINK_WriteReg(R14, 0x20000001)
T7848 099:497.767 - 0.009ms returns 0
T7848 099:497.774 JLINK_WriteReg(R15 (PC), 0x200002D8)
T7848 099:497.780 - 0.009ms returns 0
T7848 099:497.787 JLINK_WriteReg(XPSR, 0x01000000)
T7848 099:497.794 - 0.009ms returns 0
T7848 099:497.801 JLINK_WriteReg(MSP, 0x20001000)
T7848 099:497.807 - 0.009ms returns 0
T7848 099:497.814 JLINK_WriteReg(PSP, 0x20001000)
T7848 099:497.820 - 0.009ms returns 0
T7848 099:497.827 JLINK_WriteReg(CFBP, 0x00000000)
T7848 099:497.833 - 0.009ms returns 0
T7848 099:497.841 JLINK_SetBPEx(Addr = 0x20000000, Type = 0xFFFFFFF2)
T7848 099:497.853 - 0.015ms returns 0x0000000D
T7848 099:497.860 JLINK_Go()
T7848 099:497.872   CPU_ReadMem(4 bytes @ 0xE0001000)
T7848 099:500.920 - 3.064ms
T7848 099:500.930 JLINK_IsHalted()
T7848 099:502.095 - 1.175ms returns FALSE
T7848 099:502.114 JLINK_HasError()
T7848 099:505.140 JLINK_IsHalted()
T7848 099:507.542   CPU_ReadMem(2 bytes @ 0x20000000)
T7848 099:508.141 - 3.005ms returns TRUE
T7848 099:508.152 JLINK_ReadReg(R15 (PC))
T7848 099:508.162 - 0.012ms returns 0x20000000
T7848 099:508.170 JLINK_ClrBPEx(BPHandle = 0x0000000D)
T7848 099:508.178 - 0.011ms returns 0x00
T7848 099:508.187 JLINK_ReadReg(R0)
T7848 099:508.194 - 0.010ms returns 0x00000000
T7848 099:508.763 JLINK_WriteMem(0x200003A8, 0x58 Bytes, ...)
